  can0  300   [8]  00 00 FF 40 04 01 00 00
  can0  301   [8]  00 00 A1 FF 00 00 00 00
  can0  302   [8]  00 00 00 43 00 43 00 1F
  can0  303   [8]  00 00 00 00 14 00 04 44
  can0  300   [8]  00 00 FF 40 04 04 00 00
  can0  301   [8]  00 00 A1 FF 00 00 00 00
  can0  302   [8]  00 00 00 43 00 43 00 1F
  can0  303   [8]  00 00 00 00 14 00 04 44
  can0  304   [8]  10 3E 24 93 00 3F 00 00
  can0  305   [8]  07 5A 24 93 00 00 00 00
  can0  306   [8]  00 8B 00 8B 04 EC 00 1B
  can0  307   [8]  00 00 00 00 00 00 04 38
  can0  300   [8]  00 00 FF 40 04 04 00 00
  can0  301   [8]  00 00 A1 FF 00 00 00 00
  can0  302   [8]  00 00 00 43 00 43 00 1F
  can0  303   [8]  00 00 00 00 14 00 04 44
  can0  300   [8]  00 00 FF 40 04 04 00 00
  can0  301   [8]  00 00 A3 FF 00 00 00 00
  can0  302   [8]  00 00 00 43 00 43 00 1F
  can0  303   [8]  00 00 00 00 14 00 04 43
  can0  304   [8]  10 3E 24 93 00 3F 00 00
  can0  305   [8]  07 5A 24 93 00 00 00 00
  can0  306   [8]  00 8B 00 8B 04 EC 00 1B
  can0  307   [8]  00 00 00 00 00 00 04 38
  can0  308   [8]  02 A9 02 08 02 D0 0B C0
  can0  309   [8]  03 FC 00 AC 00 65 00 43
  can0  30A   [8]  00 04 40 00 00 05 FF 00
  can0  300   [8]  00 00 FF 40 04 07 00 00
  can0  301   [8]  00 00 A3 FF 00 00 00 00
  can0  302   [8]  00 00 00 43 00 43 00 1F
  can0  303   [8]  00 00 00 00 14 00 04 45
  can0  300   [8]  00 00 FF 40 04 04 00 00
  can0  301   [8]  00 00 A3 FF 00 00 00 00
  can0  302   [8]  00 00 00 43 00 43 00 1F
  can0  303   [8]  00 00 00 00 14 00 04 43
  can0  304   [8]  10 3E 24 93 00 3F 00 00
  can0  305   [8]  09 5A 24 93 00 00 00 00
  can0  306   [8]  00 8B 00 8B 04 EC 00 1B
  can0  307   [8]  00 00 00 00 00 00 04 38
  can0  300   [8]  00 00 FF 40 04 04 00 00
  can0  301   [8]  00 00 A3 FF 00 00 00 00
  can0  302   [8]  00 00 00 43 00 43 00 1F
  can0  303   [8]  00 00 00 00 14 00 04 43
  can0  300   [8]  00 00 FF 40 04 01 00 00
  can0  301   [8]  00 00 A0 FF 00 00 00 00
  can0  302   [8]  00 00 00 43 00 43 00 1F
  can0  303   [8]  00 00 00 00 14 00 04 44
  can0  304   [8]  10 3E 24 93 00 3F 00 00
  can0  305   [8]  07 5A 24 93 00 00 00 00
  can0  306   [8]  00 8B 00 8B 04 EC 00 1E
  can0  307   [8]  00 00 00 00 00 00 04 38
  can0  308   [8]  02 A9 02 08 02 D0 0B C0
  can0  309   [8]  03 FD 00 AC 00 64 00 43
  can0  30A   [8]  00 05 40 00 00 05 FF 00
  can0  30B   [8]  3A FC 32 31 03 99 03 FF
  can0  30C   [8]  00 00 01 C2 03 FF 52 80
  can0  30D   [8]  00 00 40 48 00 00 04 20
  can0  30E   [8]  00 00 00 00 00 00 00 00
  can0  30F   [8]  03 20 7F 00 00 00 00 20
  can0  300   [8]  00 00 FF 40 04 04 00 00
  can0  301   [8]  00 00 A3 FF 00 00 00 00
  can0  302   [8]  00 00 00 43 00 43 00 1F
  can0  303   [8]  00 00 00 00 14 00 04 44
  can0  300   [8]  00 00 FF 40 04 04 00 00
  can0  301   [8]  00 00 A1 FF 00 00 00 00
  can0  302   [8]  00 00 00 43 00 43 00 1F
  can0  303   [8]  00 00 00 00 14 00 04 44
  can0  304   [8]  10 3E 24 93 00 3F 00 00
  can0  305   [8]  07 5A 24 93 00 00 00 00
  can0  306   [8]  00 8B 00 8B 04 EC 00 1B
  can0  307   [8]  00 00 00 00 00 00 04 38
  can0  300   [8]  00 00 FF 40 04 04 00 00
  can0  301   [8]  00 00 A0 FF 00 00 00 00
  can0  302   [8]  00 00 00 43 00 43 00 1F
  can0  303   [8]  00 00 00 00 14 00 04 44
  can0  300   [8]  00 00 FF 40 04 01 00 00
  can0  301   [8]  00 00 A1 FF 00 00 00 00
  can0  302   [8]  00 00 00 43 00 43 00 1F
  can0  303   [8]  00 00 00 00 14 00 04 44
  can0  304   [8]  10 3E 24 93 00 3F 00 00
  can0  305   [8]  09 5A 24 93 00 00 00 00
  can0  306   [8]  00 8B 00 8B 04 EC 00 1B
  can0  307   [8]  00 00 00 00 00 00 04 38
  can0  308   [8]  02 A9 02 08 02 D0 0B C0
  can0  309   [8]  03 FD 00 AC 00 65 00 43
  can0  30A   [8]  00 04 40 00 00 05 FF 00
  can0  300   [8]  00 00 FF 40 04 01 00 00
  can0  301   [8]  00 00 A1 FF 00 00 00 00
  can0  302   [8]  00 00 00 43 00 43 00 1F
  can0  303   [8]  00 00 00 00 14 00 04 44
  can0  300   [8]  00 00 FF 40 04 04 00 00
  can0  301   [8]  00 00 A0 FF 00 00 00 00
  can0  302   [8]  00 00 00 43 00 43 00 1F
  can0  303   [8]  00 00 00 00 14 00 04 43
  can0  304   [8]  10 3E 24 93 00 3F 00 00
  can0  305   [8]  07 5A 24 93 00 00 00 00
  can0  306   [8]  00 8B 00 8B 04 EC 00 1B
  can0  307   [8]  00 00 00 00 00 00 04 38
  can0  300   [8]  00 00 FF 40 04 04 00 00
  can0  301   [8]  00 00 A1 FF 00 00 00 00
  can0  302   [8]  00 00 00 43 00 43 00 1F
  can0  303   [8]  00 00 00 00 14 00 04 43
  can0  300   [8]  00 00 FF 40 04 04 00 00
  can0  301   [8]  00 00 A3 FF 00 00 00 00
  can0  302   [8]  00 00 00 43 00 43 00 1F
  can0  303   [8]  00 00 00 00 14 00 04 43
  can0  304   [8]  10 3E 24 93 00 3F 00 00
  can0  305   [8]  07 5A 24 93 00 00 00 00
  can0  306   [8]  00 8B 00 8B 04 EC 00 1B
  can0  307   [8]  00 00 00 00 00 00 04 38
  can0  308   [8]  02 A9 02 08 02 D0 0B C0
  can0  309   [8]  03 FC 00 AC 00 65 00 43
  can0  30A   [8]  00 04 40 00 00 05 FF 00
  can0  30B   [8]  3A FC 32 31 03 98 03 FF
  can0  30C   [8]  00 00 01 C2 03 FF 52 80
  can0  30D   [8]  00 00 40 48 00 00 04 20
  can0  30E   [8]  00 00 00 00 00 00 00 00
  can0  30F   [8]  03 20 7F 00 00 00 00 20
  can0  300   [8]  00 00 FF 40 04 01 00 00
  can0  301   [8]  00 00 A1 FF 00 00 00 00
  can0  302   [8]  00 00 00 43 00 43 00 1F
  can0  303   [8]  00 00 00 00 14 00 04 44
  can0  300   [8]  00 00 FF 40 04 07 00 00
  can0  301   [8]  00 00 A3 FF 00 00 00 00
  can0  302   [8]  00 00 00 43 00 43 00 1F
  can0  303   [8]  00 00 00 00 14 00 04 44
  can0  304   [8]  10 3E 24 93 00 3F 00 00
  can0  305   [8]  09 5A 24 93 00 00 00 00
  can0  306   [8]  00 8B 00 8B 04 EC 00 1B
  can0  307   [8]  00 00 00 00 00 00 04 38
  can0  300   [8]  00 00 FF 40 04 04 00 00
  can0  301   [8]  00 00 A3 FF 00 00 00 00
  can0  302   [8]  00 00 00 43 00 43 00 1F
  can0  303   [8]  00 00 00 00 14 00 04 45
  can0  300   [8]  00 00 FF 40 04 01 00 00
  can0  301   [8]  00 00 A3 FF 00 00 00 00
  can0  302   [8]  00 00 00 43 00 43 00 1F
  can0  303   [8]  00 00 00 00 14 00 04 44
  can0  304   [8]  10 3E 24 93 00 3F 00 00
  can0  305   [8]  07 5A 24 93 00 00 00 00
  can0  306   [8]  00 8B 00 8B 04 EC 00 1B
  can0  307   [8]  00 00 00 00 00 00 04 38
  can0  308   [8]  02 A9 02 08 02 D0 0B C0
  can0  309   [8]  03 FD 00 AC 00 65 00 43
  can0  30A   [8]  00 04 40 00 00 05 FF 00
  can0  300   [8]  00 00 FF 40 04 01 00 00
  can0  301   [8]  00 00 A3 FF 00 00 00 00
  can0  302   [8]  00 00 00 43 00 43 00 1F
  can0  303   [8]  00 00 00 00 14 00 04 44
  can0  300   [8]  00 00 FF 40 04 07 00 00
  can0  301   [8]  00 00 A3 FF 00 00 00 00
  can0  302   [8]  00 00 00 43 00 43 00 1F
  can0  303   [8]  00 00 00 00 14 00 04 44
  can0  304   [8]  10 3E 24 93 00 3F 00 00
  can0  305   [8]  07 5A 24 93 00 00 00 00
  can0  306   [8]  00 8B 00 8B 04 EC 00 1E
  can0  307   [8]  00 00 00 00 00 00 04 38
  can0  300   [8]  00 00 FF 40 04 01 00 00
  can0  301   [8]  00 00 A3 FF 00 00 00 00
  can0  302   [8]  00 00 00 43 00 43 00 1F
  can0  303   [8]  00 00 00 00 14 00 04 43
  can0  300   [8]  00 00 FF 40 04 04 00 00
  can0  301   [8]  00 00 A1 FF 00 00 00 00
  can0  302   [8]  00 00 00 43 00 43 00 1F
  can0  303   [8]  00 00 00 00 14 00 04 43
  can0  304   [8]  10 3E 24 93 00 3F 00 00
  can0  305   [8]  09 5A 24 93 00 00 00 00
  can0  306   [8]  00 8B 00 8B 04 EC 00 1B
  can0  307   [8]  00 00 00 00 00 00 04 38
  can0  308   [8]  02 A9 02 08 02 D0 0B C0
  can0  309   [8]  03 FC 00 AC 00 65 00 43
  can0  30A   [8]  00 04 40 00 00 05 FF 00
  can0  30B   [8]  3A FC 32 31 03 98 03 FF
  can0  30C   [8]  00 00 01 C1 04 00 52 80
  can0  30D   [8]  00 00 40 48 00 00 04 20
  can0  30E   [8]  00 00 00 00 00 00 00 00
  can0  30F   [8]  03 20 7F 00 00 00 00 20
  can0  300   [8]  00 00 FF 40 04 04 00 00
  can0  301   [8]  00 00 A3 FF 00 00 00 00
  can0  302   [8]  00 00 00 43 00 43 00 1F
  can0  303   [8]  00 00 00 00 14 00 04 44
  can0  300   [8]  00 00 FF 40 04 04 00 00
  can0  301   [8]  00 00 A0 FF 00 00 00 00
  can0  302   [8]  00 00 00 43 00 43 00 1F
  can0  303   [8]  00 00 00 00 14 00 04 44
  can0  304   [8]  10 3E 24 93 00 3F 00 00
  can0  305   [8]  07 5A 24 93 00 00 00 00
  can0  306   [8]  00 8B 00 8B 04 EC 00 1B
  can0  307   [8]  00 00 00 00 00 00 04 38
  can0  300   [8]  00 00 FF 40 04 04 00 00
  can0  301   [8]  00 00 A3 FF 00 00 00 00
  can0  302   [8]  00 00 00 43 00 43 00 1F
  can0  303   [8]  00 00 00 00 14 00 04 44
  can0  300   [8]  00 00 FF 40 04 04 00 00
  can0  301   [8]  00 00 A1 FF 00 00 00 00
  can0  302   [8]  00 00 00 43 00 43 00 1F
  can0  303   [8]  00 00 00 00 14 00 04 42
  can0  304   [8]  10 3E 24 93 00 3F 00 00
  can0  305   [8]  07 5A 24 93 00 00 00 00
  can0  306   [8]  00 8B 00 8B 04 EC 00 1E
  can0  307   [8]  00 00 00 00 00 00 04 38
  can0  308   [8]  02 A9 02 08 02 D0 0B C0
  can0  309   [8]  03 FB 00 AC 00 65 00 43
  can0  30A   [8]  00 04 40 00 00 05 FF 00
  can0  300   [8]  00 00 FF 40 04 04 00 00
  can0  301   [8]  00 00 A0 FF 00 00 00 00
  can0  302   [8]  00 00 00 43 00 43 00 1F
  can0  303   [8]  00 00 00 00 14 00 04 44
  can0  300   [8]  00 00 FF 40 04 07 00 00
  can0  301   [8]  00 00 A1 FF 00 00 00 00
  can0  302   [8]  00 00 00 43 00 43 00 1F
  can0  303   [8]  00 00 00 00 14 00 04 43
  can0  304   [8]  10 3E 24 93 00 3F 00 00
  can0  305   [8]  09 5A 24 93 00 00 00 00
  can0  306   [8]  00 8B 00 8B 04 EC 00 1E
  can0  307   [8]  00 00 00 00 00 00 04 38
  can0  300   [8]  00 00 FF 40 04 04 00 00
  can0  301   [8]  00 00 A3 FF 00 00 00 00
  can0  302   [8]  00 00 00 43 00 43 00 1F
  can0  303   [8]  00 00 00 00 14 00 04 44
  can0  300   [8]  00 00 FF 40 04 01 00 00
  can0  301   [8]  00 00 A3 FF 00 00 00 00
  can0  302   [8]  00 00 00 43 00 43 00 1F
  can0  303   [8]  00 00 00 00 14 00 04 44
  can0  304   [8]  10 3E 24 93 00 3F 00 00
  can0  305   [8]  07 5A 24 93 00 00 00 00
  can0  306   [8]  00 8B 00 8B 04 EC 00 1B
  can0  307   [8]  00 00 00 00 00 00 04 38
  can0  308   [8]  02 A9 02 08 02 D0 0B C0
  can0  309   [8]  03 FD 00 AC 00 65 00 43
  can0  30A   [8]  00 05 40 00 00 05 FF 00
  can0  30B   [8]  3A FC 32 31 03 99 03 FF
  can0  30C   [8]  00 00 01 C2 03 FF 52 80
  can0  30D   [8]  00 00 40 48 00 00 04 20
  can0  30E   [8]  00 00 00 00 00 00 00 00
  can0  30F   [8]  03 20 7F 00 00 00 00 20
  can0  300   [8]  00 00 FF 40 04 01 00 00
  can0  301   [8]  00 00 A3 FF 00 00 00 00
  can0  302   [8]  00 00 00 43 00 43 00 1F
  can0  303   [8]  00 00 00 00 14 00 04 44
  can0  300   [8]  00 00 FF 40 04 04 00 00
  can0  301   [8]  00 00 A3 FF 00 00 00 00
  can0  302   [8]  00 00 00 43 00 43 00 1F
  can0  303   [8]  00 00 00 00 14 00 04 44
  can0  304   [8]  10 3E 24 93 00 3F 00 00
  can0  305   [8]  07 5A 24 93 00 00 00 00
  can0  306   [8]  00 8B 00 8B 04 EC 00 1B
  can0  307   [8]  00 00 00 00 00 00 04 38
  can0  300   [8]  00 00 FF 40 04 04 00 00
  can0  301   [8]  00 00 A3 FF 00 00 00 00
  can0  302   [8]  00 00 00 43 00 43 00 1F
  can0  303   [8]  00 00 00 00 14 00 04 44
  can0  300   [8]  00 00 FF 40 04 01 00 00
  can0  301   [8]  00 00 A1 FF 00 00 00 00
  can0  302   [8]  00 00 00 43 00 43 00 1F
  can0  303   [8]  00 00 00 00 14 00 04 44
  can0  304   [8]  10 3E 24 93 00 3F 00 00
  can0  305   [8]  09 5A 24 93 00 00 00 00
  can0  306   [8]  00 8B 00 8B 04 EC 00 1E
  can0  307   [8]  00 00 00 00 00 00 04 38
  can0  308   [8]  02 A9 02 08 02 D0 0B C0
  can0  309   [8]  03 FD 00 AC 00 65 00 43
  can0  30A   [8]  00 04 40 00 00 05 FF 00
  can0  300   [8]  00 00 FF 40 04 01 00 00
  can0  301   [8]  00 00 A3 FF 00 00 00 00
  can0  302   [8]  00 00 00 43 00 43 00 1F
  can0  303   [8]  00 00 00 00 14 00 04 44
  can0  300   [8]  00 00 FF 40 04 04 00 00
  can0  301   [8]  00 00 A3 FF 00 00 00 00
  can0  302   [8]  00 00 00 43 00 43 00 1F
  can0  303   [8]  00 00 00 00 14 00 04 44
  can0  304   [8]  10 3E 24 93 00 3F 00 00
  can0  305   [8]  07 5A 24 93 00 00 00 00
  can0  306   [8]  00 8B 00 8B 04 EC 00 1B
  can0  307   [8]  00 00 00 00 00 00 04 38
  can0  300   [8]  00 00 FF 40 04 01 00 00
  can0  301   [8]  00 00 A3 FF 00 00 00 00
  can0  302   [8]  00 00 00 43 00 43 00 1F
  can0  303   [8]  00 00 00 00 14 00 04 43
  can0  300   [8]  00 00 FF 40 04 04 00 00
  can0  301   [8]  00 00 A3 FF 00 00 00 00
  can0  302   [8]  00 00 00 43 00 43 00 1F
  can0  303   [8]  00 00 00 00 14 00 04 44
  can0  304   [8]  10 3E 24 93 00 3F 00 00
  can0  305   [8]  07 5A 24 93 00 00 00 00
  can0  306   [8]  00 8B 00 8B 04 EC 00 1B
  can0  307   [8]  00 00 00 00 00 00 04 38
  can0  308   [8]  02 A9 02 08 02 D0 0B C0
  can0  309   [8]  03 FD 00 AC 00 65 00 43
  can0  30A   [8]  00 04 40 00 00 05 FF 00
  can0  30B   [8]  3A FC 32 31 03 98 03 FF
  can0  30C   [8]  00 00 01 C1 03 FF 52 80
  can0  30D   [8]  00 00 40 48 00 00 04 20
  can0  30E   [8]  00 00 00 00 00 00 00 00
  can0  30F   [8]  03 20 7F 00 00 00 00 20
  can0  300   [8]  00 00 FF 40 04 04 00 00
  can0  301   [8]  00 00 A1 FF 00 00 00 00
  can0  302   [8]  00 00 00 43 00 43 00 1F
  can0  303   [8]  00 00 00 00 14 00 04 43
  can0  300   [8]  00 00 FF 40 04 04 00 00
  can0  301   [8]  00 00 A1 FF 00 00 00 00
  can0  302   [8]  00 00 00 43 00 43 00 1F
  can0  303   [8]  00 00 00 00 14 00 04 43
  can0  304   [8]  10 3E 24 93 00 3F 00 00
  can0  305   [8]  09 5A 24 93 00 00 00 00
  can0  306   [8]  00 8B 00 8B 04 EC 00 1E
  can0  307   [8]  00 00 00 00 00 00 04 38
  can0  300   [8]  00 00 FF 40 04 01 00 00
  can0  301   [8]  00 00 A1 FF 00 00 00 00
  can0  302   [8]  00 00 00 43 00 43 00 1F
  can0  303   [8]  00 00 00 00 14 00 04 44
  can0  300   [8]  00 00 FF 40 04 04 00 00
  can0  301   [8]  00 00 A1 FF 00 00 00 00
  can0  302   [8]  00 00 00 43 00 43 00 1F
  can0  303   [8]  00 00 00 00 14 00 04 43
  can0  304   [8]  10 3E 24 93 00 3F 00 00
  can0  305   [8]  07 5A 24 93 00 00 00 00
  can0  306   [8]  00 8B 00 8B 04 EC 00 1B
  can0  307   [8]  00 00 00 00 00 00 04 38
  can0  308   [8]  02 A9 02 08 02 D0 0B C0
  can0  309   [8]  03 FC 00 AC 00 65 00 43
  can0  30A   [8]  00 04 40 00 00 05 FF 00
  can0  300   [8]  00 00 FF 40 04 01 00 00
  can0  301   [8]  00 00 A3 FF 00 00 00 00
  can0  302   [8]  00 00 00 43 00 43 00 1F
  can0  303   [8]  00 00 00 00 14 00 04 44
  can0  300   [8]  00 00 FF 40 04 04 00 00
  can0  301   [8]  00 00 A1 FF 00 00 00 00
  can0  302   [8]  00 00 00 43 00 43 00 1F
  can0  303   [8]  00 00 00 00 14 00 04 42
  can0  304   [8]  10 3E 24 93 00 3F 00 00
  can0  305   [8]  07 5A 24 93 00 00 00 00
  can0  306   [8]  00 8B 00 8B 04 EC 00 1B
  can0  307   [8]  00 00 00 00 00 00 04 38
  can0  300   [8]  00 00 FF 40 04 04 00 00
  can0  301   [8]  00 00 A1 FF 00 00 00 00
  can0  302   [8]  00 00 00 43 00 43 00 1F
  can0  303   [8]  00 00 00 00 14 00 04 44
  can0  300   [8]  00 00 FF 40 04 07 00 00
  can0  301   [8]  00 00 A3 FF 00 00 00 00
  can0  302   [8]  00 00 00 43 00 43 00 1F
  can0  303   [8]  00 00 00 00 14 00 04 44
  can0  304   [8]  10 3E 24 93 00 3F 00 00
  can0  305   [8]  09 5A 24 93 00 00 00 00
  can0  306   [8]  00 8B 00 8B 04 EC 00 1B
  can0  307   [8]  00 00 00 00 00 00 04 38
  can0  308   [8]  02 A9 02 08 02 D0 0B C0
  can0  309   [8]  03 FD 00 AC 00 64 00 43
  can0  30A   [8]  00 05 40 00 00 05 FF 00
  can0  30B   [8]  3A FC 32 31 03 99 03 FF
  can0  30C   [8]  00 00 01 C1 04 00 52 80
  can0  30D   [8]  00 00 40 48 00 00 04 20
  can0  30E   [8]  00 00 00 00 00 00 00 00
  can0  30F   [8]  03 20 7F 00 00 00 00 20
  can0  300   [8]  00 00 FF 40 04 04 00 00
  can0  301   [8]  00 00 A1 FF 00 00 00 00
  can0  302   [8]  00 00 00 43 00 43 00 1F
  can0  303   [8]  00 00 00 00 14 00 04 43
  can0  300   [8]  00 00 FF 40 04 04 00 00
  can0  301   [8]  00 00 A3 FF 00 00 00 00
  can0  302   [8]  00 00 00 43 00 43 00 1F
  can0  303   [8]  00 00 00 00 14 00 04 42
  can0  304   [8]  10 3E 24 93 00 3F 00 00
  can0  305   [8]  07 5A 24 93 00 00 00 00
  can0  306   [8]  00 8B 00 8B 04 EC 00 1E
  can0  307   [8]  00 00 00 00 00 00 04 38
  can0  300   [8]  00 00 FF 40 04 07 00 00
  can0  301   [8]  00 00 A1 FF 00 00 00 00
  can0  302   [8]  00 00 00 43 00 43 00 1F
  can0  303   [8]  00 00 00 00 14 00 04 42
  can0  300   [8]  00 00 FF 40 04 07 00 00
  can0  301   [8]  00 00 A0 FF 00 00 00 00
  can0  302   [8]  00 00 00 43 00 43 00 1F
  can0  303   [8]  00 00 00 00 14 00 04 44
  can0  304   [8]  10 3E 24 93 00 3F 00 00
  can0  305   [8]  07 5A 24 93 00 00 00 00
  can0  306   [8]  00 8B 00 8B 04 EC 00 1B
  can0  307   [8]  00 00 00 00 00 00 04 38
  can0  308   [8]  02 A9 02 08 02 D0 0B C0
  can0  309   [8]  03 FD 00 AC 00 65 00 43
  can0  30A   [8]  00 06 40 00 00 05 FF 00
  can0  300   [8]  00 00 FF 40 04 01 00 00
  can0  301   [8]  00 00 A3 FF 00 00 00 00
  can0  302   [8]  00 00 00 43 00 43 00 1F
  can0  303   [8]  00 00 00 00 14 00 04 43
  can0  300   [8]  00 00 FF 40 04 04 00 00
  can0  301   [8]  00 00 A3 FF 00 00 00 00
  can0  302   [8]  00 00 00 43 00 43 00 1F
  can0  303   [8]  00 00 00 00 14 00 04 44
  can0  304   [8]  10 3E 24 93 00 3F 00 00
  can0  305   [8]  09 5A 24 93 00 00 00 00
  can0  306   [8]  00 8B 00 8B 04 EC 00 1B
  can0  307   [8]  00 00 00 00 00 00 04 38
  can0  300   [8]  00 00 FF 40 04 04 00 00
  can0  301   [8]  00 00 A3 FF 00 00 00 00
  can0  302   [8]  00 00 00 43 00 43 00 1F
  can0  303   [8]  00 00 00 00 14 00 04 44
  can0  300   [8]  00 00 FF 40 04 04 00 00
  can0  301   [8]  00 00 A1 FF 00 00 00 00
  can0  302   [8]  00 00 00 43 00 43 00 1F
  can0  303   [8]  00 00 00 00 14 00 04 44
  can0  304   [8]  10 3E 24 93 00 3F 00 00
  can0  305   [8]  07 5A 24 93 00 00 00 00
  can0  306   [8]  00 8B 00 8B 04 EC 00 1B
  can0  307   [8]  00 00 00 00 00 00 04 38
  can0  308   [8]  02 A9 02 08 02 D0 0B C0
  can0  309   [8]  03 FD 00 AC 00 65 00 43
  can0  30A   [8]  00 05 40 00 00 05 FF 00
  can0  30B   [8]  3A FC 32 31 03 99 03 FF
  can0  30C   [8]  00 00 01 C2 03 FF 52 80
  can0  30D   [8]  00 00 40 48 00 00 04 20
  can0  30E   [8]  00 00 00 00 00 00 00 00
  can0  30F   [8]  03 20 7F 00 00 00 00 20
  can0  300   [8]  00 00 FF 40 04 04 00 00
  can0  301   [8]  00 00 A3 FF 00 00 00 00
  can0  302   [8]  00 00 00 43 00 43 00 1F
  can0  303   [8]  00 00 00 00 14 00 04 42
  can0  300   [8]  00 00 FF 40 04 04 00 00
  can0  301   [8]  00 00 A3 FF 00 00 00 00
  can0  302   [8]  00 00 00 43 00 43 00 1F
  can0  303   [8]  00 00 00 00 14 00 04 44
  can0  304   [8]  10 3E 24 93 00 3F 00 00
  can0  305   [8]  07 5A 24 93 00 00 00 00
  can0  306   [8]  00 8B 00 8B 04 EC 00 1E
  can0  307   [8]  00 00 00 00 00 00 04 38
  can0  300   [8]  00 00 FF 40 04 07 00 00
  can0  301   [8]  00 00 A3 FF 00 00 00 00
  can0  302   [8]  00 00 00 43 00 43 00 1F
  can0  303   [8]  00 00 00 00 14 00 04 44
  can0  300   [8]  00 00 FF 40 04 01 00 00
  can0  301   [8]  00 00 A3 FF 00 00 00 00
  can0  302   [8]  00 00 00 43 00 43 00 1F
  can0  303   [8]  00 00 00 00 14 00 04 44
  can0  304   [8]  10 3E 24 93 00 3F 00 00
  can0  305   [8]  09 5A 24 93 00 00 00 00
  can0  306   [8]  00 8B 00 8B 04 EC 00 1B
  can0  307   [8]  00 00 00 00 00 00 04 38
  can0  308   [8]  02 A9 02 08 02 D0 0B C0
  can0  309   [8]  03 FD 00 AC 00 65 00 43
  can0  30A   [8]  00 04 40 00 00 05 FF 00
  can0  300   [8]  00 00 FF 40 04 04 00 00
  can0  301   [8]  00 00 A3 FF 00 00 00 00
  can0  302   [8]  00 00 00 43 00 43 00 1F
  can0  303   [8]  00 00 00 00 14 00 04 44
  can0  300   [8]  00 00 FF 40 03 FD 00 00
  can0  301   [8]  00 00 A3 FF 00 00 00 00
  can0  302   [8]  00 00 00 43 00 43 00 1F
  can0  303   [8]  00 00 00 00 14 00 04 44
  can0  304   [8]  0F ED 23 DD 00 40 00 00
  can0  305   [8]  07 5A 23 DD 00 00 00 00
  can0  306   [8]  00 8B 00 8B 04 EC 00 1B
  can0  307   [8]  00 00 00 00 00 00 04 38
  can0  300   [8]  00 00 FF 40 04 01 00 00
  can0  301   [8]  00 00 A1 FF 00 00 00 00
  can0  302   [8]  00 00 00 43 00 43 00 1F
  can0  303   [8]  00 00 00 00 14 00 04 44
  can0  300   [8]  00 00 FF 40 04 07 00 00
  can0  301   [8]  00 00 A1 FF 00 00 00 00
  can0  302   [8]  00 00 00 43 00 43 00 1F
  can0  303   [8]  00 00 00 00 14 00 04 42
  can0  304   [8]  10 3E 24 93 00 3F 00 00
  can0  305   [8]  07 5A 24 93 00 00 00 00
  can0  306   [8]  00 8B 00 8B 04 EC 00 1B
  can0  307   [8]  00 00 00 00 00 00 04 38
  can0  308   [8]  02 A9 02 08 02 D0 0B C0
  can0  309   [8]  03 FB 00 AC 00 65 00 43
  can0  30A   [8]  00 04 40 00 00 05 FF 00
  can0  30B   [8]  3A FC 32 31 03 98 03 FF
  can0  30C   [8]  00 00 01 C2 03 FF 52 80
  can0  30D   [8]  00 00 40 48 00 00 04 20
  can0  30E   [8]  00 00 00 00 00 00 00 00
  can0  30F   [8]  03 20 7F 00 00 00 00 20
  can0  300   [8]  00 00 FF 40 04 04 00 00
  can0  301   [8]  00 00 A3 FF 00 00 00 00
  can0  302   [8]  00 00 00 43 00 43 00 1F
  can0  303   [8]  00 00 00 00 14 00 04 43
  can0  300   [8]  00 00 FF 40 04 04 00 00
  can0  301   [8]  00 00 A3 FF 00 00 00 00
  can0  302   [8]  00 00 00 43 00 43 00 1F
  can0  303   [8]  00 00 00 00 14 00 04 44
  can0  304   [8]  10 3E 24 93 00 3F 00 00
  can0  305   [8]  09 5A 24 93 00 00 00 00
  can0  306   [8]  00 8B 00 8B 04 EC 00 1B
  can0  307   [8]  00 00 00 00 00 00 04 38
  can0  300   [8]  00 00 FF 40 04 04 00 00
  can0  301   [8]  00 00 A1 FF 00 00 00 00
  can0  302   [8]  00 00 00 43 00 43 00 1F
  can0  303   [8]  00 00 00 00 14 00 04 43
  can0  300   [8]  00 00 FF 40 04 04 00 00
  can0  301   [8]  00 00 A1 FF 00 00 00 00
  can0  302   [8]  00 00 00 43 00 43 00 1F
  can0  303   [8]  00 00 00 00 14 00 04 42
  can0  304   [8]  10 3E 24 93 00 3F 00 00
  can0  305   [8]  07 5A 24 93 00 00 00 00
  can0  306   [8]  00 8B 00 8B 04 EC 00 1B
  can0  307   [8]  00 00 00 00 00 00 04 38
  can0  308   [8]  02 A9 02 08 02 D0 0B C0
  can0  309   [8]  03 FB 00 AC 00 65 00 43
  can0  30A   [8]  00 04 40 00 00 05 FF 00
  can0  300   [8]  00 00 FF 40 04 04 00 00
  can0  301   [8]  00 00 A1 FF 00 00 00 00
  can0  302   [8]  00 00 00 43 00 43 00 1F
  can0  303   [8]  00 00 00 00 14 00 04 43
  can0  300   [8]  00 00 FF 40 04 04 00 00
  can0  301   [8]  00 00 A3 FF 00 00 00 00
  can0  302   [8]  00 00 00 43 00 43 00 1F
  can0  303   [8]  00 00 00 00 14 00 04 45
  can0  304   [8]  10 3E 24 93 00 3F 00 00
  can0  305   [8]  07 5A 24 93 00 00 00 00
  can0  306   [8]  00 8B 00 8B 04 EC 00 1E
  can0  307   [8]  00 00 00 00 00 00 04 38
  can0  300   [8]  00 00 FF 40 04 04 00 00
  can0  301   [8]  00 00 A1 FF 00 00 00 00
  can0  302   [8]  00 00 00 43 00 43 00 1F
  can0  303   [8]  00 00 00 00 14 00 04 44
  can0  300   [8]  00 00 FF 40 04 04 00 00
  can0  301   [8]  00 00 A3 FF 00 00 00 00
  can0  302   [8]  00 00 00 43 00 43 00 1F
  can0  303   [8]  00 00 00 00 14 00 04 44
  can0  304   [8]  10 3E 24 93 00 3F 00 00
  can0  305   [8]  09 5A 24 93 00 00 00 00
  can0  306   [8]  00 8B 00 8B 04 EC 00 1E
  can0  307   [8]  00 00 00 00 00 00 04 38
  can0  308   [8]  02 A9 02 08 02 D0 0B C0
  can0  309   [8]  03 FD 00 AC 00 65 00 43
  can0  30A   [8]  00 05 40 00 00 05 FF 00
  can0  30B   [8]  3A FC 32 31 03 99 03 FF
  can0  30C   [8]  00 00 01 C2 04 00 52 80
  can0  30D   [8]  00 00 40 48 00 00 04 20
  can0  30E   [8]  00 00 00 00 00 00 00 00
  can0  30F   [8]  03 20 7F 00 00 00 00 20
  can0  300   [8]  00 00 FF 40 04 04 00 00
  can0  301   [8]  00 00 A1 FF 00 00 00 00
  can0  302   [8]  00 00 00 43 00 43 00 1F
  can0  303   [8]  00 00 00 00 14 00 04 44
  can0  300   [8]  00 00 FF 40 04 04 00 00
  can0  301   [8]  00 00 A3 FF 00 00 00 00
  can0  302   [8]  00 00 00 43 00 43 00 1F
  can0  303   [8]  00 00 00 00 14 00 04 44
  can0  304   [8]  10 3E 24 93 00 3F 00 00
  can0  305   [8]  07 5A 24 93 00 00 00 00
  can0  306   [8]  00 8B 00 8B 04 EC 00 1E
  can0  307   [8]  00 00 00 00 00 00 04 38
  can0  300   [8]  00 00 FF 40 04 01 00 00
  can0  301   [8]  00 00 A3 FF 00 00 00 00
  can0  302   [8]  00 00 00 43 00 43 00 1F
  can0  303   [8]  00 00 00 00 14 00 04 43
  can0  300   [8]  00 00 FF 40 04 01 00 00
  can0  301   [8]  00 00 A3 FF 00 00 00 00
  can0  302   [8]  00 00 00 43 00 43 00 1F
  can0  303   [8]  00 00 00 00 14 00 04 45
  can0  304   [8]  10 3E 24 93 00 3F 00 00
  can0  305   [8]  07 5A 24 93 00 00 00 00
  can0  306   [8]  00 8B 00 8B 04 EC 00 1B
  can0  307   [8]  00 00 00 00 00 00 04 38
  can0  308   [8]  02 A9 02 08 02 D0 0B C0
  can0  309   [8]  03 FE 00 AC 00 65 00 43
  can0  30A   [8]  00 04 40 00 00 05 FF 00
  can0  300   [8]  00 00 FF 40 04 04 00 00
  can0  301   [8]  00 00 A3 FF 00 00 00 00
  can0  302   [8]  00 00 00 43 00 43 00 1F
  can0  303   [8]  00 00 00 00 14 00 04 42
  can0  300   [8]  00 00 FF 40 04 04 00 00
  can0  301   [8]  00 00 A3 FF 00 00 00 00
  can0  302   [8]  00 00 00 43 00 43 00 1F
  can0  303   [8]  00 00 00 00 14 00 04 44
  can0  304   [8]  10 3E 24 93 00 3F 00 00
  can0  305   [8]  09 5A 24 93 00 00 00 00
  can0  306   [8]  00 8B 00 8B 04 EC 00 1B
  can0  307   [8]  00 00 00 00 00 00 04 38
  can0  300   [8]  00 00 FF 40 04 01 00 00
  can0  301   [8]  00 00 A3 FF 00 00 00 00
  can0  302   [8]  00 00 00 43 00 43 00 1F
  can0  303   [8]  00 00 00 00 14 00 04 43
  can0  300   [8]  00 00 FF 40 04 04 00 00
  can0  301   [8]  00 00 A3 FF 00 00 00 00
  can0  302   [8]  00 00 00 43 00 43 00 1F
  can0  303   [8]  00 00 00 00 14 00 04 44
  can0  304   [8]  10 3E 24 93 00 3F 00 00
  can0  305   [8]  07 5A 24 93 00 00 00 00
  can0  306   [8]  00 8B 00 8B 04 EC 00 20
